                  * c:\esim2.3\16_stage_apuf\16_stage_apuf.cir
                  Transient Analysis  Wed Feb 04 22:57:30  2026
--------------------------------------------------------------------------------
Index   time            /cnt            /cnt_b          a               
--------------------------------------------------------------------------------
0	0.000000e+00	3.080888e-08	1.800000e+00	0.000000e+00	
1	1.000000e-12	-4.13878e-03	1.803670e+00	1.800000e-02	
2	1.307597e-12	-5.83946e-03	1.805192e+00	2.353675e-02	
3	1.922792e-12	-9.96664e-03	1.808926e+00	3.461026e-02	
4	3.153182e-12	-2.14336e-02	1.819617e+00	5.675727e-02	
5	5.613961e-12	-5.02524e-02	1.848450e+00	1.010513e-01	
6	8.795013e-12	-9.05023e-02	1.893257e+00	1.583102e-01	
7	1.301164e-11	-1.44825e-01	1.956441e+00	2.342095e-01	
8	1.821835e-11	-2.12588e-01	2.036518e+00	3.279302e-01	
9	2.677798e-11	-3.25497e-01	2.171405e+00	4.820037e-01	
10	4.118109e-11	-5.20874e-01	2.403103e+00	7.412596e-01	
11	5.882807e-11	-7.16145e-01	2.602981e+00	1.058905e+00	
12	6.139044e-11	-7.32432e-01	2.619482e+00	1.105028e+00	
13	6.651517e-11	-7.58085e-01	2.647566e+00	1.197273e+00	
14	7.676463e-11	-7.84284e-01	2.680642e+00	1.381763e+00	
15	9.191123e-11	-7.95817e-01	2.700057e+00	1.654402e+00	
16	1.000000e-10	-7.96280e-01	2.704181e+00	1.800000e+00	
17	1.005059e-10	-7.95347e-01	2.703276e+00	1.800000e+00	
18	1.015176e-10	-7.91875e-01	2.699513e+00	1.800000e+00	
19	1.035410e-10	-7.79809e-01	2.685821e+00	1.800000e+00	
20	1.071464e-10	-7.56485e-01	2.659351e+00	1.800000e+00	
21	1.108552e-10	-7.36928e-01	2.637298e+00	1.800000e+00	
22	1.182726e-10	-7.10796e-01	2.607423e+00	1.800000e+00	
23	1.280226e-10	-6.93274e-01	2.585554e+00	1.800000e+00	
24	1.376877e-10	-6.85449e-01	2.573215e+00	1.800000e+00	
25	1.512109e-10	-6.79561e-01	2.561130e+00	1.800000e+00	
26	1.646040e-10	-6.76091e-01	2.551889e+00	1.800000e+00	
27	1.859695e-10	-6.72763e-01	2.539983e+00	1.800000e+00	
28	2.110388e-10	-6.70583e-01	2.528744e+00	1.800000e+00	
29	2.543000e-10	-6.68480e-01	2.513314e+00	1.800000e+00	
30	2.968812e-10	-6.67267e-01	2.501242e+00	1.800000e+00	
31	3.272189e-10	-6.66832e-01	2.493566e+00	1.800000e+00	
32	3.424905e-10	-6.66632e-01	2.490006e+00	1.800000e+00	
33	3.495153e-10	-6.66552e-01	2.488432e+00	1.800000e+00	
34	3.566080e-10	-6.66468e-01	2.486877e+00	1.800000e+00	
35	3.625743e-10	-6.66397e-01	2.485599e+00	1.800000e+00	
36	3.686921e-10	-6.66326e-01	2.484314e+00	1.800000e+00	
37	3.758699e-10	-6.66239e-01	2.482839e+00	1.800000e+00	
38	3.838393e-10	-6.66143e-01	2.481242e+00	1.800000e+00	
39	3.942900e-10	-6.66012e-01	2.479207e+00	1.800000e+00	
40	4.076018e-10	-6.65837e-01	2.476715e+00	1.800000e+00	
41	4.257203e-10	-6.65583e-01	2.473485e+00	1.800000e+00	
42	4.510440e-10	-6.65192e-01	2.469268e+00	1.800000e+00	
43	4.867271e-10	-6.64560e-01	2.463851e+00	1.800000e+00	
44	5.383274e-10	-6.63478e-01	2.456965e+00	1.800000e+00	
45	6.166828e-10	-6.61493e-01	2.448217e+00	1.800000e+00	
46	7.166828e-10	-6.58452e-01	2.439127e+00	1.800000e+00	
47	8.166828e-10	-6.54969e-01	2.431148e+00	1.800000e+00	
48	9.166828e-10	-6.51165e-01	2.423625e+00	1.800000e+00	
49	1.016683e-09	-6.47092e-01	2.416943e+00	1.800000e+00	
50	1.116683e-09	-6.42792e-01	2.411601e+00	1.800000e+00	
51	1.216683e-09	-6.38431e-01	2.407453e+00	1.800000e+00	
52	1.316683e-09	-6.34178e-01	2.404081e+00	1.800000e+00	
53	1.416683e-09	-6.30135e-01	2.401121e+00	1.800000e+00	
54	1.516683e-09	-6.26315e-01	2.398392e+00	1.800000e+00	

Index   time            /cnt            /cnt_b          a               
--------------------------------------------------------------------------------
55	1.616683e-09	-6.22705e-01	2.395791e+00	1.800000e+00	
56	1.716683e-09	-6.19275e-01	2.393287e+00	1.800000e+00	
57	1.816683e-09	-6.15997e-01	2.390854e+00	1.800000e+00	
58	1.916683e-09	-6.12850e-01	2.388486e+00	1.800000e+00	
59	2.016683e-09	-6.09814e-01	2.386171e+00	1.800000e+00	
60	2.116683e-09	-6.06876e-01	2.383910e+00	1.800000e+00	
61	2.216683e-09	-6.04019e-01	2.381695e+00	1.800000e+00	
62	2.316683e-09	-6.01237e-01	2.379526e+00	1.800000e+00	
63	2.416683e-09	-5.98518e-01	2.377395e+00	1.800000e+00	
64	2.516683e-09	-5.95856e-01	2.375306e+00	1.800000e+00	
65	2.616683e-09	-5.93243e-01	2.373251e+00	1.800000e+00	
66	2.716683e-09	-5.90675e-01	2.371232e+00	1.800000e+00	
67	2.816683e-09	-5.88145e-01	2.369244e+00	1.800000e+00	
68	2.916683e-09	-5.85651e-01	2.367288e+00	1.800000e+00	
69	3.016683e-09	-5.83186e-01	2.365358e+00	1.800000e+00	
70	3.116683e-09	-5.80751e-01	2.363459e+00	1.800000e+00	
71	3.216683e-09	-5.78338e-01	2.361583e+00	1.800000e+00	
72	3.316683e-09	-5.75949e-01	2.359734e+00	1.800000e+00	
73	3.416683e-09	-5.73578e-01	2.357906e+00	1.800000e+00	
74	3.516683e-09	-5.71226e-01	2.356103e+00	1.800000e+00	
75	3.616683e-09	-5.68888e-01	2.354319e+00	1.800000e+00	
76	3.716683e-09	-5.66565e-01	2.352558e+00	1.800000e+00	
77	3.816683e-09	-5.64253e-01	2.350814e+00	1.800000e+00	
78	3.916683e-09	-5.61953e-01	2.349091e+00	1.800000e+00	
79	4.016683e-09	-5.59661e-01	2.347383e+00	1.800000e+00	
80	4.116683e-09	-5.57379e-01	2.345694e+00	1.800000e+00	
81	4.216683e-09	-5.55104e-01	2.344020e+00	1.800000e+00	
82	4.316683e-09	-5.52837e-01	2.342363e+00	1.800000e+00	
83	4.416683e-09	-5.50575e-01	2.340719e+00	1.800000e+00	
84	4.516683e-09	-5.48319e-01	2.339090e+00	1.800000e+00	
85	4.616683e-09	-5.46068e-01	2.337473e+00	1.800000e+00	
86	4.716683e-09	-5.43821e-01	2.335871e+00	1.800000e+00	
87	4.816683e-09	-5.41578e-01	2.334279e+00	1.800000e+00	
88	4.916683e-09	-5.39338e-01	2.332700e+00	1.800000e+00	
89	5.016683e-09	-5.37102e-01	2.331129e+00	1.800000e+00	
90	5.116683e-09	-5.34869e-01	2.329571e+00	1.800000e+00	
91	5.216683e-09	-5.32639e-01	2.328020e+00	1.800000e+00	
92	5.316683e-09	-5.30411e-01	2.326480e+00	1.800000e+00	
93	5.416683e-09	-5.28186e-01	2.324946e+00	1.800000e+00	
94	5.516683e-09	-5.25964e-01	2.323422e+00	1.800000e+00	
95	5.616683e-09	-5.23744e-01	2.321903e+00	1.800000e+00	
96	5.716683e-09	-5.21527e-01	2.320392e+00	1.800000e+00	
97	5.816683e-09	-5.19313e-01	2.318885e+00	1.800000e+00	
98	5.916683e-09	-5.17101e-01	2.317385e+00	1.800000e+00	
99	6.016683e-09	-5.14892e-01	2.315889e+00	1.800000e+00	
100	6.116683e-09	-5.12686e-01	2.314398e+00	1.800000e+00	
101	6.216683e-09	-5.10483e-01	2.312909e+00	1.800000e+00	
102	6.316683e-09	-5.08283e-01	2.311425e+00	1.800000e+00	
103	6.416683e-09	-5.06087e-01	2.309942e+00	1.800000e+00	
104	6.516683e-09	-5.03895e-01	2.308462e+00	1.800000e+00	
105	6.616683e-09	-5.01706e-01	2.306983e+00	1.800000e+00	
106	6.716683e-09	-4.99521e-01	2.305507e+00	1.800000e+00	
107	6.816683e-09	-4.97341e-01	2.304030e+00	1.800000e+00	
108	6.916683e-09	-4.95165e-01	2.302554e+00	1.800000e+00	
109	7.016683e-09	-4.92994e-01	2.301077e+00	1.800000e+00	
110	7.116683e-09	-4.90828e-01	2.299601e+00	1.800000e+00	
111	7.216683e-09	-4.88667e-01	2.298122e+00	1.800000e+00	
112	7.316683e-09	-4.86512e-01	2.296644e+00	1.800000e+00	

Index   time            /cnt            /cnt_b          a               
--------------------------------------------------------------------------------
113	7.416683e-09	-4.84363e-01	2.295162e+00	1.800000e+00	
114	7.516683e-09	-4.82220e-01	2.293680e+00	1.800000e+00	
115	7.616683e-09	-4.80082e-01	2.292194e+00	1.800000e+00	
116	7.716683e-09	-4.77952e-01	2.290707e+00	1.800000e+00	
117	7.816683e-09	-4.75828e-01	2.289216e+00	1.800000e+00	
118	7.916683e-09	-4.73712e-01	2.287723e+00	1.800000e+00	
119	8.016683e-09	-4.71602e-01	2.286225e+00	1.800000e+00	
120	8.116683e-09	-4.69500e-01	2.284724e+00	1.800000e+00	
121	8.216683e-09	-4.67405e-01	2.283218e+00	1.800000e+00	
122	8.316683e-09	-4.65318e-01	2.281710e+00	1.800000e+00	
123	8.416683e-09	-4.63239e-01	2.280196e+00	1.800000e+00	
124	8.516683e-09	-4.61169e-01	2.278679e+00	1.800000e+00	
125	8.616683e-09	-4.59106e-01	2.277155e+00	1.800000e+00	
126	8.716683e-09	-4.57052e-01	2.275629e+00	1.800000e+00	
127	8.816683e-09	-4.55007e-01	2.274096e+00	1.800000e+00	
128	8.916683e-09	-4.52970e-01	2.272559e+00	1.800000e+00	
129	9.016683e-09	-4.50941e-01	2.271016e+00	1.800000e+00	
130	9.116683e-09	-4.48922e-01	2.269469e+00	1.800000e+00	
131	9.216683e-09	-4.46911e-01	2.267916e+00	1.800000e+00	
132	9.316683e-09	-4.44909e-01	2.266359e+00	1.800000e+00	
133	9.416683e-09	-4.42917e-01	2.264795e+00	1.800000e+00	
134	9.516683e-09	-4.40933e-01	2.263227e+00	1.800000e+00	
135	9.616683e-09	-4.38958e-01	2.261652e+00	1.800000e+00	
136	9.716683e-09	-4.36991e-01	2.260074e+00	1.800000e+00	
137	9.816683e-09	-4.35034e-01	2.258488e+00	1.800000e+00	
138	9.916683e-09	-4.33086e-01	2.256899e+00	1.800000e+00	
139	1.001668e-08	-4.31146e-01	2.255304e+00	1.800000e+00	
140	1.010000e-08	-4.29536e-01	2.253971e+00	1.800000e+00	
141	1.010427e-08	-3.90596e-01	2.205830e+00	1.723126e+00	
142	1.011281e-08	-3.01373e-01	2.008722e+00	1.569379e+00	
143	1.012801e-08	2.193655e-01	1.369241e+00	1.295905e+00	
144	1.012993e-08	2.540947e-01	1.342086e+00	1.261298e+00	
145	1.013377e-08	3.072665e-01	1.296715e+00	1.192086e+00	
146	1.014065e-08	3.864128e-01	1.219468e+00	1.068307e+00	
147	1.014782e-08	4.674122e-01	1.138989e+00	9.392124e-01	
148	1.015524e-08	5.450543e-01	1.060938e+00	8.057015e-01	
149	1.016326e-08	6.278903e-01	9.780331e-01	6.613047e-01	
150	1.016447e-08	6.396533e-01	9.663514e-01	6.395683e-01	
151	1.016688e-08	6.632478e-01	9.435483e-01	5.960955e-01	
152	1.017171e-08	7.057188e-01	9.071217e-01	5.091499e-01	
153	1.017292e-08	7.141951e-01	9.012276e-01	4.874135e-01	
154	1.017534e-08	7.283319e-01	8.930031e-01	4.439406e-01	
155	1.017594e-08	7.312515e-01	8.915173e-01	4.330724e-01	
156	1.017715e-08	7.365459e-01	8.891574e-01	4.113360e-01	
157	1.017956e-08	7.460989e-01	8.855355e-01	3.678632e-01	
158	1.018439e-08	7.647689e-01	8.813274e-01	2.809176e-01	
159	1.019032e-08	7.799688e-01	8.792598e-01	1.743063e-01	
160	1.019748e-08	7.908692e-01	8.788484e-01	4.530351e-02	
161	1.020000e-08	7.939176e-01	8.789957e-01	0.000000e+00	
162	1.020099e-08	7.950394e-01	8.790839e-01	0.000000e+00	
163	1.020296e-08	7.969479e-01	8.792669e-01	0.000000e+00	
164	1.020692e-08	7.997234e-01	8.793978e-01	0.000000e+00	
165	1.021375e-08	8.015681e-01	8.802748e-01	0.000000e+00	
166	1.022105e-08	8.001586e-01	8.835430e-01	0.000000e+00	
167	1.023001e-08	7.947999e-01	8.911988e-01	0.000000e+00	
168	1.024335e-08	7.862542e-01	9.043447e-01	0.000000e+00	
169	1.025774e-08	7.840066e-01	9.121449e-01	0.000000e+00	
170	1.028650e-08	7.903762e-01	9.169871e-01	0.000000e+00	

Index   time            /cnt            /cnt_b          a               
--------------------------------------------------------------------------------
171	1.030620e-08	7.962553e-01	9.210871e-01	0.000000e+00	
172	1.032057e-08	8.089033e-01	9.315440e-01	0.000000e+00	
173	1.032968e-08	1.340586e+00	1.423031e+00	0.000000e+00	
174	1.033683e-08	1.098831e+00	1.229176e+00	0.000000e+00	
175	1.033992e-08	1.232496e+00	1.107440e+00	0.000000e+00	
176	1.034233e-08	9.427659e-01	8.216597e-01	0.000000e+00	
177	1.034388e-08	9.624751e-01	8.443221e-01	0.000000e+00	
178	1.034492e-08	9.656295e-01	8.473150e-01	0.000000e+00	
179	1.034612e-08	9.647895e-01	8.484974e-01	0.000000e+00	
180	1.034781e-08	9.655212e-01	8.498395e-01	0.000000e+00	
181	1.035120e-08	9.631673e-01	8.514809e-01	0.000000e+00	
182	1.035416e-08	9.630843e-01	8.533391e-01	0.000000e+00	
183	1.035695e-08	9.607494e-01	8.545698e-01	0.000000e+00	
184	1.035863e-08	9.611115e-01	8.557609e-01	0.000000e+00	
185	1.036065e-08	9.590260e-01	8.565227e-01	0.000000e+00	
186	1.036312e-08	9.589366e-01	8.581676e-01	0.000000e+00	
187	1.036645e-08	9.560847e-01	8.595728e-01	0.000000e+00	
188	1.037310e-08	9.535128e-01	8.634046e-01	0.000000e+00	
189	1.038501e-08	9.452126e-01	8.691242e-01	0.000000e+00	
190	1.040827e-08	9.316336e-01	8.808637e-01	0.000000e+00	
191	1.044407e-08	9.087355e-01	8.973130e-01	0.000000e+00	
192	1.048131e-08	8.880104e-01	9.160838e-01	0.000000e+00	
193	1.053370e-08	8.563418e-01	9.447283e-01	0.000000e+00	
194	1.062726e-08	8.126373e-01	1.001914e+00	0.000000e+00	
195	1.072726e-08	8.091988e-01	1.060417e+00	0.000000e+00	
196	1.082726e-08	8.546769e-01	1.108431e+00	0.000000e+00	
197	1.092726e-08	9.060741e-01	1.136912e+00	0.000000e+00	
198	1.102726e-08	9.545841e-01	1.150441e+00	0.000000e+00	
199	1.112726e-08	1.001588e+00	1.168202e+00	0.000000e+00	
200	1.122726e-08	1.051970e+00	1.205786e+00	0.000000e+00	
201	1.132726e-08	1.097612e+00	1.250475e+00	0.000000e+00	
202	1.142726e-08	1.141572e+00	1.292607e+00	0.000000e+00	
203	1.152726e-08	1.178417e+00	1.329234e+00	0.000000e+00	
204	1.162726e-08	1.212566e+00	1.361917e+00	0.000000e+00	
205	1.172726e-08	1.239489e+00	1.389055e+00	0.000000e+00	
206	1.182726e-08	1.263758e+00	1.412563e+00	0.000000e+00	
207	1.192726e-08	1.280725e+00	1.431259e+00	0.000000e+00	
208	1.202726e-08	1.294821e+00	1.447162e+00	0.000000e+00	
209	1.212726e-08	1.300815e+00	1.459204e+00	0.000000e+00	
210	1.222726e-08	1.297637e+00	1.469377e+00	0.000000e+00	
211	1.232726e-08	1.252779e+00	1.476596e+00	0.000000e+00	
212	1.242726e-08	1.159440e+00	1.482776e+00	0.000000e+00	
213	1.252726e-08	1.052286e+00	1.486753e+00	0.000000e+00	
214	1.262726e-08	9.607965e-01	1.490342e+00	0.000000e+00	
215	1.272726e-08	8.756307e-01	1.492287e+00	0.000000e+00	
216	1.282726e-08	7.977661e-01	1.494307e+00	0.000000e+00	
217	1.292726e-08	7.199792e-01	1.495063e+00	0.000000e+00	
218	1.302726e-08	6.471314e-01	1.496200e+00	0.000000e+00	
219	1.312726e-08	5.800057e-01	1.496313e+00	0.000000e+00	
220	1.322726e-08	5.241801e-01	1.496992e+00	0.000000e+00	
221	1.332726e-08	4.727253e-01	1.496790e+00	0.000000e+00	
222	1.342726e-08	4.291235e-01	1.497261e+00	0.000000e+00	
223	1.352726e-08	3.894639e-01	1.496927e+00	0.000000e+00	
224	1.362726e-08	3.581553e-01	1.497322e+00	0.000000e+00	
225	1.372726e-08	3.307107e-01	1.496950e+00	0.000000e+00	
226	1.382726e-08	3.110117e-01	1.497333e+00	0.000000e+00	
227	1.392726e-08	2.940588e-01	1.496965e+00	0.000000e+00	
228	1.402726e-08	2.834724e-01	1.497364e+00	0.000000e+00	

Index   time            /cnt            /cnt_b          a               
--------------------------------------------------------------------------------
229	1.412726e-08	2.741114e-01	1.497015e+00	0.000000e+00	
230	1.422726e-08	2.696384e-01	1.497436e+00	0.000000e+00	
231	1.432726e-08	2.650163e-01	1.497109e+00	0.000000e+00	
232	1.442726e-08	2.640974e-01	1.497550e+00	0.000000e+00	
233	1.452726e-08	2.620328e-01	1.497241e+00	0.000000e+00	
234	1.462726e-08	2.628804e-01	1.497699e+00	0.000000e+00	
235	1.472726e-08	2.619663e-01	1.497403e+00	0.000000e+00	
236	1.482726e-08	2.635091e-01	1.497873e+00	0.000000e+00	
237	1.492726e-08	2.629615e-01	1.497586e+00	0.000000e+00	
238	1.502726e-08	2.646468e-01	1.498064e+00	0.000000e+00	
239	1.512726e-08	2.640957e-01	1.497783e+00	0.000000e+00	
240	1.522726e-08	2.656902e-01	1.498265e+00	0.000000e+00	
241	1.532726e-08	2.650027e-01	1.497987e+00	0.000000e+00	
242	1.542726e-08	2.664433e-01	1.498473e+00	0.000000e+00	
243	1.552726e-08	2.656036e-01	1.498196e+00	0.000000e+00	
244	1.562726e-08	2.669034e-01	1.498684e+00	0.000000e+00	
245	1.572726e-08	2.659415e-01	1.498408e+00	0.000000e+00	
246	1.582726e-08	2.671380e-01	1.498896e+00	0.000000e+00	
247	1.592726e-08	2.660932e-01	1.498620e+00	0.000000e+00	
248	1.602726e-08	2.672241e-01	1.499109e+00	0.000000e+00	
249	1.612726e-08	2.661301e-01	1.498833e+00	0.000000e+00	
250	1.622726e-08	2.672242e-01	1.499323e+00	0.000000e+00	
251	1.632726e-08	2.661047e-01	1.499046e+00	0.000000e+00	
252	1.642726e-08	2.671809e-01	1.499536e+00	0.000000e+00	
253	1.652726e-08	2.660507e-01	1.499259e+00	0.000000e+00	
254	1.662726e-08	2.671199e-01	1.499748e+00	0.000000e+00	
255	1.672726e-08	2.659867e-01	1.499471e+00	0.000000e+00	
256	1.682726e-08	2.670545e-01	1.499961e+00	0.000000e+00	
257	1.692726e-08	2.659220e-01	1.499683e+00	0.000000e+00	
258	1.702726e-08	2.669905e-01	1.500173e+00	0.000000e+00	
259	1.712726e-08	2.658601e-01	1.499895e+00	0.000000e+00	
260	1.722726e-08	2.669299e-01	1.500385e+00	0.000000e+00	
261	1.732726e-08	2.658015e-01	1.500106e+00	0.000000e+00	
262	1.742726e-08	2.668725e-01	1.500596e+00	0.000000e+00	
263	1.752726e-08	2.657458e-01	1.500317e+00	0.000000e+00	
264	1.762726e-08	2.668175e-01	1.500808e+00	0.000000e+00	
265	1.772726e-08	2.656920e-01	1.500528e+00	0.000000e+00	
266	1.782726e-08	2.667640e-01	1.501019e+00	0.000000e+00	
267	1.792726e-08	2.656395e-01	1.500739e+00	0.000000e+00	
268	1.802726e-08	2.667115e-01	1.501230e+00	0.000000e+00	
269	1.812726e-08	2.655876e-01	1.500949e+00	0.000000e+00	
270	1.822726e-08	2.666595e-01	1.501440e+00	0.000000e+00	
271	1.832726e-08	2.655361e-01	1.501160e+00	0.000000e+00	
272	1.842726e-08	2.666077e-01	1.501651e+00	0.000000e+00	
273	1.852726e-08	2.654847e-01	1.501370e+00	0.000000e+00	
274	1.862726e-08	2.665560e-01	1.501861e+00	0.000000e+00	
275	1.872726e-08	2.654334e-01	1.501580e+00	0.000000e+00	
276	1.882726e-08	2.665043e-01	1.502071e+00	0.000000e+00	
277	1.892726e-08	2.653820e-01	1.501789e+00	0.000000e+00	
278	1.902726e-08	2.664526e-01	1.502281e+00	0.000000e+00	
279	1.912726e-08	2.653307e-01	1.501999e+00	0.000000e+00	
280	1.922726e-08	2.664010e-01	1.502491e+00	0.000000e+00	
281	1.932726e-08	2.652794e-01	1.502208e+00	0.000000e+00	
282	1.942726e-08	2.663493e-01	1.502700e+00	0.000000e+00	
283	1.952726e-08	2.652282e-01	1.502417e+00	0.000000e+00	
284	1.962726e-08	2.662978e-01	1.502909e+00	0.000000e+00	
285	1.972726e-08	2.651769e-01	1.502626e+00	0.000000e+00	
286	1.982726e-08	2.662462e-01	1.503118e+00	0.000000e+00	

Index   time            /cnt            /cnt_b          a               
--------------------------------------------------------------------------------
287	1.992726e-08	2.651258e-01	1.502834e+00	0.000000e+00	
288	2.000000e-08	2.662016e-01	1.503299e+00	0.000000e+00	
289	2.000130e-08	2.649173e-01	1.502147e+00	2.345107e-02	
290	2.000391e-08	2.627483e-01	1.499470e+00	7.035321e-02	
291	2.000912e-08	2.575435e-01	1.493089e+00	1.641575e-01	
292	2.001515e-08	2.520050e-01	1.486161e+00	2.726104e-01	
293	2.002466e-08	2.445355e-01	1.474709e+00	4.438408e-01	
294	2.003819e-08	2.943058e-01	1.404412e+00	6.874193e-01	
295	2.005095e-08	4.216102e-01	1.245754e+00	9.170627e-01	
296	2.006431e-08	5.940851e-01	1.035709e+00	1.157567e+00	
297	2.007692e-08	7.301922e-01	9.202286e-01	1.384528e+00	
298	2.008845e-08	7.609484e-01	9.141762e-01	1.592157e+00	
299	2.008990e-08	7.613760e-01	9.151419e-01	1.618137e+00	
300	2.009278e-08	7.628676e-01	9.162782e-01	1.670098e+00	
301	2.009856e-08	7.688739e-01	9.191615e-01	1.774020e+00	
302	2.010000e-08	7.708227e-01	9.204640e-01	1.800000e+00	
303	2.010064e-08	7.715366e-01	9.210207e-01	1.800000e+00	
304	2.010193e-08	7.726912e-01	9.219788e-01	1.800000e+00	
305	2.010450e-08	7.741999e-01	9.233413e-01	1.800000e+00	
306	2.010965e-08	7.760657e-01	9.248176e-01	1.800000e+00	
307	2.011994e-08	7.781304e-01	9.261204e-01	1.800000e+00	
308	2.013124e-08	7.793708e-01	9.271910e-01	1.800000e+00	
309	2.014343e-08	7.791526e-01	9.299365e-01	1.800000e+00	
310	2.014964e-08	7.773903e-01	9.337849e-01	1.800000e+00	
311	2.015278e-08	7.753371e-01	9.377395e-01	1.800000e+00	
312	2.015595e-08	7.712864e-01	9.459309e-01	1.800000e+00	
313	2.015930e-08	7.257872e-01	1.132935e+00	1.800000e+00	
314	2.016215e-08	5.482598e-01	1.818711e+00	1.800000e+00	
315	2.016374e-08	1.625085e-02	1.914930e+00	1.800000e+00	
316	2.016507e-08	-2.01563e-01	2.093923e+00	1.800000e+00	
317	2.016611e-08	-2.71455e-01	2.184784e+00	1.800000e+00	
318	2.016708e-08	-3.12407e-01	2.231119e+00	1.800000e+00	
319	2.016799e-08	-3.33480e-01	2.260341e+00	1.800000e+00	
320	2.016894e-08	-3.49697e-01	2.276251e+00	1.800000e+00	
321	2.016981e-08	-3.57786e-01	2.287887e+00	1.800000e+00	
322	2.017074e-08	-3.63398e-01	2.292661e+00	1.800000e+00	
323	2.017162e-08	-3.66390e-01	2.297722e+00	1.800000e+00	
324	2.017254e-08	-3.68818e-01	2.298379e+00	1.800000e+00	
325	2.017346e-08	-3.69871e-01	2.301025e+00	1.800000e+00	
326	2.017532e-08	-3.71917e-01	2.300568e+00	1.800000e+00	
327	2.017891e-08	-3.73059e-01	2.301514e+00	1.800000e+00	
328	2.018437e-08	-3.75115e-01	2.298296e+00	1.800000e+00	
329	2.018872e-08	-3.76333e-01	2.298675e+00	1.800000e+00	
330	2.019126e-08	-3.76850e-01	2.294719e+00	1.800000e+00	
331	2.019291e-08	-3.76818e-01	2.296663e+00	1.800000e+00	
